Title: * generic mos characterisation netlist
Date: Sat Oct 10 01:11:18  2020
Plotname: Operating Point
Flags: real
No. Variables: 32
No. Points: 1
Variables:
	0	v(sky130_fd_pr__esd_nfet_05v0_nvt.pm3)	voltage
	1	v()	voltage
	2	@m.xm.msky130_fd_pr__pfet_01v8_lvt[cbs]	capacitance
	3	@m.xm.msky130_fd_pr__pfet_01v8_lvt[cdd]	capacitance
	4	@m.xm.msky130_fd_pr__pfet_01v8_lvt[cgb]	capacitance
	5	@m.xm.msky130_fd_pr__pfet_01v8_lvt[cgd]	capacitance
	6	@m.xm.msky130_fd_pr__pfet_01v8_lvt[cgg]	capacitance
	7	@m.xm.msky130_fd_pr__pfet_01v8_lvt[cgs]	capacitance
	8	@m.xm.msky130_fd_pr__pfet_01v8_lvt[gds]	admittance
	9	@m.xm.msky130_fd_pr__pfet_01v8_lvt[gm]	admittance
	10	@m.xm.msky130_fd_pr__pfet_01v8_lvt[gmbs]	admittance
	11	i(@m.xm.msky130_fd_pr__pfet_01v8_lvt[id])	current
	12	v(@m.xm.msky130_fd_pr__pfet_01v8_lvt[vbs])	voltage
	13	v(@m.xm.msky130_fd_pr__pfet_01v8_lvt[vds])	voltage
	14	v(@m.xm.msky130_fd_pr__pfet_01v8_lvt[vdsat])	voltage
	15	v(@m.xm.msky130_fd_pr__pfet_01v8_lvt[vgs])	voltage
	16	v(@m.xm.msky130_fd_pr__pfet_01v8_lvt[vth])	voltage
	17	i(bgs)	current
	18	i(hccvs)	current
	19	v(m.xm.msky130_fd_pr__pfet_01v8_lvt#body)	voltage
	20	v(m.xm.msky130_fd_pr__pfet_01v8_lvt#dbody)	voltage
	21	v(m.xm.msky130_fd_pr__pfet_01v8_lvt#sbody)	voltage
	22	v(out)	voltage
	23	v(vb)	voltage
	24	i(vbs)	current
	25	v(vctl)	voltage
	26	i(vctl)	current
	27	v(vd)	voltage
	28	v(vd_)	voltage
	29	i(vdmeas)	current
	30	i(vds)	current
	31	v(vg)	voltage
Values:
 0	0.000000000000000e+00
	0.000000000000000e+00
	1.524391934876874e-14
	1.568683892682184e-17
	6.932583957735499e-16
	-5.553713643535236e-18
	5.637686671484331e-14
	-5.706457139697333e-14
	1.304286170837714e-08
	9.880254904091059e-06
	-1.976256723277268e-07
	6.058251851674945e-06
	1.105705276338683e+00
	1.799992444909525e+00
	8.480497771109459e-01
	1.799992450967777e+00
	3.672438158690102e-03
	0.000000000000000e+00
	0.000000000000000e+00
	-1.105712825370906e+00
	-1.152856412701882e+00
	-9.642820634108081e-01
	-6.058252211005311e-06
	-1.200000000000000e+00
	-7.542973970705236e-03
	-1.000000000000000e+01
	0.000000000000000e+00
	-1.800000000000000e+00
	-1.800000000000000e+00
	-6.058252211005311e-06
	1.199993941747708e+00
	-1.800000000000000e+00

