Title: * generic mos characterisation netlist
Date: Sat Oct 10 01:11:18  2020
Plotname: Noise Spectral Density Curves
Flags: real
No. Variables: 18
No. Points: 91
Variables:
	0	frequency	frequency grid=3
	1	@m.xm.msky130_fd_pr__pfet_01v8_lvt[cbs]	capacitance
	2	@m.xm.msky130_fd_pr__pfet_01v8_lvt[cdd]	capacitance
	3	@m.xm.msky130_fd_pr__pfet_01v8_lvt[cgb]	capacitance
	4	@m.xm.msky130_fd_pr__pfet_01v8_lvt[cgd]	capacitance
	5	@m.xm.msky130_fd_pr__pfet_01v8_lvt[cgg]	capacitance
	6	@m.xm.msky130_fd_pr__pfet_01v8_lvt[cgs]	capacitance
	7	@m.xm.msky130_fd_pr__pfet_01v8_lvt[gds]	admittance
	8	@m.xm.msky130_fd_pr__pfet_01v8_lvt[gm]	admittance
	9	@m.xm.msky130_fd_pr__pfet_01v8_lvt[gmbs]	admittance
	10	i(@m.xm.msky130_fd_pr__pfet_01v8_lvt[id])	current
	11	v(@m.xm.msky130_fd_pr__pfet_01v8_lvt[vbs])	voltage
	12	v(@m.xm.msky130_fd_pr__pfet_01v8_lvt[vds])	voltage
	13	v(@m.xm.msky130_fd_pr__pfet_01v8_lvt[vdsat])	voltage
	14	v(@m.xm.msky130_fd_pr__pfet_01v8_lvt[vgs])	voltage
	15	v(@m.xm.msky130_fd_pr__pfet_01v8_lvt[vth])	voltage
	16	inoise_spectrum	voltage-density
	17	onoise_spectrum	voltage-density
Values:
 0	1.000000000000000e+00
	1.524391934876874e-14
	1.568683892682184e-17
	6.932583957735499e-16
	-5.553713643535236e-18
	5.637686671484331e-14
	-5.706457139697333e-14
	1.304286170837714e-08
	9.880254904091059e-06
	-1.976256723277268e-07
	6.058251851674945e-06
	1.105705276338683e+00
	1.799992444909525e+00
	8.480497771109459e-01
	1.799992450967777e+00
	3.672438158690102e-03
	1.809293169002090e-03
	2.359995988311843e-11

 1	1.258925411794167e+00
	1.524391934876874e-14
	1.568683892682184e-17
	6.932583957735499e-16
	-5.553713643535236e-18
	5.637686671484331e-14
	-5.706457139697333e-14
	1.304286170837714e-08
	9.880254904091059e-06
	-1.976256723277268e-07
	6.058251851674945e-06
	1.105705276338683e+00
	1.799992444909525e+00
	8.480497771109459e-01
	1.799992450967777e+00
	3.672438158690102e-03
	1.634993118731528e-03
	2.132643436249788e-11

 2	1.584893192461114e+00
	1.524391934876874e-14
	1.568683892682184e-17
	6.932583957735499e-16
	-5.553713643535236e-18
	5.637686671484331e-14
	-5.706457139697333e-14
	1.304286170837714e-08
	9.880254904091059e-06
	-1.976256723277268e-07
	6.058251851674945e-06
	1.105705276338683e+00
	1.799992444909525e+00
	8.480497771109459e-01
	1.799992450967777e+00
	3.672438158690102e-03
	1.477489773586687e-03
	1.927200079111310e-11

 3	1.995262314968880e+00
	1.524391934876874e-14
	1.568683892682184e-17
	6.932583957735499e-16
	-5.553713643535236e-18
	5.637686671484331e-14
	-5.706457139697333e-14
	1.304286170837714e-08
	9.880254904091059e-06
	-1.976256723277268e-07
	6.058251851674945e-06
	1.105705276338683e+00
	1.799992444909525e+00
	8.480497771109459e-01
	1.799992450967777e+00
	3.672438158690102e-03
	1.335165060929389e-03
	1.741555344104603e-11

 4	2.511886431509581e+00
	1.524391934876874e-14
	1.568683892682184e-17
	6.932583957735499e-16
	-5.553713643535236e-18
	5.637686671484331e-14
	-5.706457139697333e-14
	1.304286170837714e-08
	9.880254904091059e-06
	-1.976256723277268e-07
	6.058251851674945e-06
	1.105705276338683e+00
	1.799992444909525e+00
	8.480497771109459e-01
	1.799992450967777e+00
	3.672438158690102e-03
	1.206556842058888e-03
	1.573802054699499e-11

 5	3.162277660168380e+00
	1.524391934876874e-14
	1.568683892682184e-17
	6.932583957735499e-16
	-5.553713643535236e-18
	5.637686671484331e-14
	-5.706457139697333e-14
	1.304286170837714e-08
	9.880254904091059e-06
	-1.976256723277268e-07
	6.058251851674945e-06
	1.105705276338683e+00
	1.799992444909525e+00
	8.480497771109459e-01
	1.799992450967777e+00
	3.672438158690102e-03
	1.090343891260903e-03
	1.422216837681101e-11

 6	3.981071705534974e+00
	1.524391934876874e-14
	1.568683892682184e-17
	6.932583957735499e-16
	-5.553713643535236e-18
	5.637686671484331e-14
	-5.706457139697333e-14
	1.304286170837714e-08
	9.880254904091059e-06
	-1.976256723277268e-07
	6.058251851674945e-06
	1.105705276338683e+00
	1.799992444909525e+00
	8.480497771109459e-01
	1.799992450967777e+00
	3.672438158690102e-03
	9.853323224838181e-04
	1.285242418451470e-11

 7	5.011872336272725e+00
	1.524391934876874e-14
	1.568683892682184e-17
	6.932583957735499e-16
	-5.553713643535236e-18
	5.637686671484331e-14
	-5.706457139697333e-14
	1.304286170837714e-08
	9.880254904091059e-06
	-1.976256723277268e-07
	6.058251851674945e-06
	1.105705276338683e+00
	1.799992444909525e+00
	8.480497771109459e-01
	1.799992450967777e+00
	3.672438158690102e-03
	8.904433241968537e-04
	1.161471622690605e-11

 8	6.309573444801935e+00
	1.524391934876874e-14
	1.568683892682184e-17
	6.932583957735499e-16
	-5.553713643535236e-18
	5.637686671484331e-14
	-5.706457139697333e-14
	1.304286170837714e-08
	9.880254904091059e-06
	-1.976256723277268e-07
	6.058251851674945e-06
	1.105705276338683e+00
	1.799992444909525e+00
	8.480497771109459e-01
	1.799992450967777e+00
	3.672438158690102e-03
	8.047020764233004e-04
	1.049632920016494e-11

 9	7.943282347242818e+00
	1.524391934876874e-14
	1.568683892682184e-17
	6.932583957735499e-16
	-5.553713643535236e-18
	5.637686671484331e-14
	-5.706457139697333e-14
	1.304286170837714e-08
	9.880254904091059e-06
	-1.976256723277268e-07
	6.058251851674945e-06
	1.105705276338683e+00
	1.799992444909525e+00
	8.480497771109459e-01
	1.799992450967777e+00
	3.672438158690102e-03
	7.272277360852702e-04
	9.485773611235464e-12

 10	1.000000000000001e+01
	1.524391934876874e-14
	1.568683892682184e-17
	6.932583957735499e-16
	-5.553713643535236e-18
	5.637686671484331e-14
	-5.706457139697333e-14
	1.304286170837714e-08
	9.880254904091059e-06
	-1.976256723277268e-07
	6.058251851674945e-06
	1.105705276338683e+00
	1.799992444909525e+00
	8.480497771109459e-01
	1.799992450967777e+00
	3.672438158690102e-03
	6.572243877695878e-04
	8.572667741918012e-12

 11	1.258925411794168e+01
	1.524391934876874e-14
	1.568683892682184e-17
	6.932583957735499e-16
	-5.553713643535236e-18
	5.637686671484331e-14
	-5.706457139697333e-14
	1.304286170837714e-08
	9.880254904091059e-06
	-1.976256723277268e-07
	6.058251851674945e-06
	1.105705276338683e+00
	1.799992444909525e+00
	8.480497771109459e-01
	1.799992450967777e+00
	3.672438158690102e-03
	5.939728669399082e-04
	7.747630992927963e-12

 12	1.584893192461115e+01
	1.524391934876874e-14
	1.568683892682184e-17
	6.932583957735499e-16
	-5.553713643535236e-18
	5.637686671484331e-14
	-5.706457139697333e-14
	1.304286170837714e-08
	9.880254904091059e-06
	-1.976256723277268e-07
	6.058251851674945e-06
	1.105705276338683e+00
	1.799992444909525e+00
	8.480497771109459e-01
	1.799992450967777e+00
	3.672438158690102e-03
	5.368233715795666e-04
	7.002187512044363e-12

 13	1.995262314968881e+01
	1.524391934876874e-14
	1.568683892682184e-17
	6.932583957735499e-16
	-5.553713643535236e-18
	5.637686671484331e-14
	-5.706457139697333e-14
	1.304286170837714e-08
	9.880254904091059e-06
	-1.976256723277268e-07
	6.058251851674945e-06
	1.105705276338683e+00
	1.799992444909525e+00
	8.480497771109459e-01
	1.799992450967777e+00
	3.672438158690102e-03
	4.851887863447876e-04
	6.328679116062506e-12

 14	2.511886431509582e+01
	1.524391934876874e-14
	1.568683892682184e-17
	6.932583957735499e-16
	-5.553713643535236e-18
	5.637686671484331e-14
	-5.706457139697333e-14
	1.304286170837714e-08
	9.880254904091059e-06
	-1.976256723277268e-07
	6.058251851674945e-06
	1.105705276338683e+00
	1.799992444909525e+00
	8.480497771109459e-01
	1.799992450967777e+00
	3.672438158690102e-03
	4.385386506214388e-04
	5.720186611660543e-12

 15	3.162277660168382e+01
	1.524391934876874e-14
	1.568683892682184e-17
	6.932583957735499e-16
	-5.553713643535236e-18
	5.637686671484331e-14
	-5.706457139697333e-14
	1.304286170837714e-08
	9.880254904091059e-06
	-1.976256723277268e-07
	6.058251851674945e-06
	1.105705276338683e+00
	1.799992444909525e+00
	8.480497771109459e-01
	1.799992450967777e+00
	3.672438158690102e-03
	3.963937084851105e-04
	5.170458706465113e-12

 16	3.981071705534977e+01
	1.524391934876874e-14
	1.568683892682184e-17
	6.932583957735499e-16
	-5.553713643535236e-18
	5.637686671484331e-14
	-5.706457139697333e-14
	1.304286170837714e-08
	9.880254904091059e-06
	-1.976256723277268e-07
	6.058251851674945e-06
	1.105705276338683e+00
	1.799992444909525e+00
	8.480497771109459e-01
	1.799992450967777e+00
	3.672438158690102e-03
	3.583209845311024e-04
	4.673847779430292e-12

 17	5.011872336272729e+01
	1.524391934876874e-14
	1.568683892682184e-17
	6.932583957735499e-16
	-5.553713643535236e-18
	5.637686671484331e-14
	-5.706457139697333e-14
	1.304286170837714e-08
	9.880254904091059e-06
	-1.976256723277268e-07
	6.058251851674945e-06
	1.105705276338683e+00
	1.799992444909525e+00
	8.480497771109459e-01
	1.799992450967777e+00
	3.672438158690102e-03
	3.239293349282341e-04
	4.225251849915266e-12

 18	6.309573444801940e+01
	1.524391934876874e-14
	1.568683892682184e-17
	6.932583957735499e-16
	-5.553713643535236e-18
	5.637686671484331e-14
	-5.706457139697333e-14
	1.304286170837714e-08
	9.880254904091059e-06
	-1.976256723277268e-07
	6.058251851674945e-06
	1.105705276338683e+00
	1.799992444909525e+00
	8.480497771109459e-01
	1.799992450967777e+00
	3.672438158690102e-03
	2.928654279124185e-04
	3.820062148265099e-12

 19	7.943282347242825e+01
	1.524391934876874e-14
	1.568683892682184e-17
	6.932583957735499e-16
	-5.553713643535236e-18
	5.637686671484331e-14
	-5.706457139697333e-14
	1.304286170837714e-08
	9.880254904091059e-06
	-1.976256723277268e-07
	6.058251851674945e-06
	1.105705276338683e+00
	1.799992444909525e+00
	8.480497771109459e-01
	1.799992450967777e+00
	3.672438158690102e-03
	2.648101123209871e-04
	3.454115747896443e-12

 20	1.000000000000001e+02
	1.524391934876874e-14
	1.568683892682184e-17
	6.932583957735499e-16
	-5.553713643535236e-18
	5.637686671484331e-14
	-5.706457139697333e-14
	1.304286170837714e-08
	9.880254904091059e-06
	-1.976256723277268e-07
	6.058251851674945e-06
	1.105705276338683e+00
	1.799992444909525e+00
	8.480497771109459e-01
	1.799992450967777e+00
	3.672438158690102e-03
	2.394751367198804e-04
	3.123652770427519e-12

 21	1.258925411794169e+02
	1.524391934876874e-14
	1.568683892682184e-17
	6.932583957735499e-16
	-5.553713643535236e-18
	5.637686671484331e-14
	-5.706457139697333e-14
	1.304286170837714e-08
	9.880254904091059e-06
	-1.976256723277268e-07
	6.058251851674945e-06
	1.105705276338683e+00
	1.799992444909525e+00
	8.480497771109459e-01
	1.799992450967777e+00
	3.672438158690102e-03
	2.166001852310825e-04
	2.825277721765711e-12

 22	1.584893192461116e+02
	1.524391934876874e-14
	1.568683892682184e-17
	6.932583957735499e-16
	-5.553713643535236e-18
	5.637686671484331e-14
	-5.706457139697333e-14
	1.304286170837714e-08
	9.880254904091059e-06
	-1.976256723277268e-07
	6.058251851674945e-06
	1.105705276338683e+00
	1.799992444909525e+00
	8.480497771109459e-01
	1.799992450967777e+00
	3.672438158690102e-03
	1.959501993605319e-04
	2.555924558712861e-12

 23	1.995262314968883e+02
	1.524391934876874e-14
	1.568683892682184e-17
	6.932583957735499e-16
	-5.553713643535236e-18
	5.637686671484331e-14
	-5.706457139697333e-14
	1.304286170837714e-08
	9.880254904091059e-06
	-1.976256723277268e-07
	6.058251851674945e-06
	1.105705276338683e+00
	1.799992444909525e+00
	8.480497771109459e-01
	1.799992450967777e+00
	3.672438158690102e-03
	1.773129579863369e-04
	2.312825122948265e-12

 24	2.511886431509584e+02
	1.524391934876874e-14
	1.568683892682184e-17
	6.932583957735499e-16
	-5.553713643535236e-18
	5.637686671484331e-14
	-5.706457139697333e-14
	1.304286170837714e-08
	9.880254904091059e-06
	-1.976256723277268e-07
	6.058251851674945e-06
	1.105705276338683e+00
	1.799992444909525e+00
	8.480497771109459e-01
	1.799992450967777e+00
	3.672438158690102e-03
	1.604968902187619e-04
	2.093480612532342e-12

 25	3.162277660168385e+02
	1.524391934876874e-14
	1.568683892682184e-17
	6.932583957735499e-16
	-5.553713643535236e-18
	5.637686671484331e-14
	-5.706457139697333e-14
	1.304286170837714e-08
	9.880254904091059e-06
	-1.976256723277268e-07
	6.058251851674945e-06
	1.105705276338683e+00
	1.799992444909525e+00
	8.480497771109459e-01
	1.799992450967777e+00
	3.672438158690102e-03
	1.453290981091306e-04
	1.895635790626958e-12

 26	3.981071705534980e+02
	1.524391934876874e-14
	1.568683892682184e-17
	6.932583957735499e-16
	-5.553713643535236e-18
	5.637686671484331e-14
	-5.706457139697333e-14
	1.304286170837714e-08
	9.880254904091059e-06
	-1.976256723277268e-07
	6.058251851674945e-06
	1.105705276338683e+00
	1.799992444909525e+00
	8.480497771109459e-01
	1.799992450967777e+00
	3.672438158690102e-03
	1.316535681841186e-04
	1.717255657207176e-12

 27	5.011872336272732e+02
	1.524391934876874e-14
	1.568683892682184e-17
	6.932583957735499e-16
	-5.553713643535236e-18
	5.637686671484331e-14
	-5.706457139697333e-14
	1.304286170837714e-08
	9.880254904091059e-06
	-1.976256723277268e-07
	6.058251851674945e-06
	1.105705276338683e+00
	1.799992444909525e+00
	8.480497771109459e-01
	1.799992450967777e+00
	3.672438158690102e-03
	1.193295525334969e-04
	1.556504332386726e-12

 28	6.309573444801945e+02
	1.524391934876874e-14
	1.568683892682184e-17
	6.932583957735499e-16
	-5.553713643535236e-18
	5.637686671484331e-14
	-5.706457139697333e-14
	1.304286170837714e-08
	9.880254904091059e-06
	-1.976256723277268e-07
	6.058251851674945e-06
	1.105705276338683e+00
	1.799992444909525e+00
	8.480497771109459e-01
	1.799992450967777e+00
	3.672438158690102e-03
	1.082301017031658e-04
	1.411725919855431e-12

 29	7.943282347242831e+02
	1.524391934876874e-14
	1.568683892682184e-17
	6.932583957735499e-16
	-5.553713643535236e-18
	5.637686671484331e-14
	-5.706457139697333e-14
	1.304286170837714e-08
	9.880254904091059e-06
	-1.976256723277268e-07
	6.058251851674945e-06
	1.105705276338683e+00
	1.799992444909525e+00
	8.480497771109459e-01
	1.799992450967777e+00
	3.672438158690102e-03
	9.824073296591064e-05
	1.281427136152685e-12

 30	1.000000000000002e+03
	1.524391934876874e-14
	1.568683892682184e-17
	6.932583957735499e-16
	-5.553713643535236e-18
	5.637686671484331e-14
	-5.706457139697333e-14
	1.304286170837714e-08
	9.880254904091059e-06
	-1.976256723277268e-07
	6.058251851674945e-06
	1.105705276338683e+00
	1.799992444909525e+00
	8.480497771109459e-01
	1.799992450967777e+00
	3.672438158690102e-03
	8.925821869408365e-05
	1.164261506525106e-12

 31	1.258925411794170e+03
	1.524391934876874e-14
	1.568683892682184e-17
	6.932583957735499e-16
	-5.553713643535236e-18
	5.637686671484331e-14
	-5.706457139697333e-14
	1.304286170837714e-08
	9.880254904091059e-06
	-1.976256723277268e-07
	6.058251851674945e-06
	1.105705276338683e+00
	1.799992444909525e+00
	8.480497771109459e-01
	1.799992450967777e+00
	3.672438158690102e-03
	8.118948059221072e-05
	1.059014941601854e-12

 32	1.584893192461117e+03
	1.524391934876874e-14
	1.568683892682184e-17
	6.932583957735499e-16
	-5.553713643535236e-18
	5.637686671484331e-14
	-5.706457139697333e-14
	1.304286170837714e-08
	9.880254904091059e-06
	-1.976256723277268e-07
	6.058251851674945e-06
	1.105705276338683e+00
	1.799992444909525e+00
	8.480497771109459e-01
	1.799992450967777e+00
	3.672438158690102e-03
	7.395057653876402e-05
	9.645925220519542e-13

 33	1.995262314968884e+03
	1.524391934876874e-14
	1.568683892682184e-17
	6.932583957735499e-16
	-5.553713643535236e-18
	5.637686671484331e-14
	-5.706457139697333e-14
	1.304286170837714e-08
	9.880254904091059e-06
	-1.976256723277268e-07
	6.058251851674945e-06
	1.105705276338683e+00
	1.799992444909525e+00
	8.480497771109459e-01
	1.799992450967777e+00
	3.672438158690102e-03
	6.746576784313413e-05
	8.800063321745702e-13

 34	2.511886431509586e+03
	1.524391934876874e-14
	1.568683892682184e-17
	6.932583957735499e-16
	-5.553713643535236e-18
	5.637686671484331e-14
	-5.706457139697333e-14
	1.304286170837714e-08
	9.880254904091059e-06
	-1.976256723277268e-07
	6.058251851674945e-06
	1.105705276338683e+00
	1.799992444909525e+00
	8.480497771109459e-01
	1.799992450967777e+00
	3.672438158690102e-03
	6.166665599156782e-05
	8.043641999122840e-13

 35	3.162277660168386e+03
	1.524391934876874e-14
	1.568683892682184e-17
	6.932583957735499e-16
	-5.553713643535236e-18
	5.637686671484331e-14
	-5.706457139697333e-14
	1.304286170837714e-08
	9.880254904091059e-06
	-1.976256723277268e-07
	6.058251851674945e-06
	1.105705276338683e+00
	1.799992444909525e+00
	8.480497771109459e-01
	1.799992450967777e+00
	3.672438158690102e-03
	5.649137961216911e-05
	7.368592223872331e-13

 36	3.981071705534981e+03
	1.524391934876874e-14
	1.568683892682184e-17
	6.932583957735499e-16
	-5.553713643535236e-18
	5.637686671484331e-14
	-5.706457139697333e-14
	1.304286170837714e-08
	9.880254904091059e-06
	-1.976256723277268e-07
	6.058251851674945e-06
	1.105705276338683e+00
	1.799992444909525e+00
	8.480497771109459e-01
	1.799992450967777e+00
	3.672438158690102e-03
	5.188386462019886e-05
	6.767599851701246e-13

 37	5.011872336272734e+03
	1.524391934876874e-14
	1.568683892682184e-17
	6.932583957735499e-16
	-5.553713643535236e-18
	5.637686671484331e-14
	-5.706457139697333e-14
	1.304286170837714e-08
	9.880254904091059e-06
	-1.976256723277268e-07
	6.058251851674945e-06
	1.105705276338683e+00
	1.799992444909525e+00
	8.480497771109459e-01
	1.799992450967777e+00
	3.672438158690102e-03
	4.779312345305048e-05
	6.234014219592657e-13

 38	6.309573444801948e+03
	1.524391934876874e-14
	1.568683892682184e-17
	6.932583957735499e-16
	-5.553713643535236e-18
	5.637686671484331e-14
	-5.706457139697333e-14
	1.304286170837714e-08
	9.880254904091059e-06
	-1.976256723277268e-07
	6.058251851674945e-06
	1.105705276338683e+00
	1.799992444909525e+00
	8.480497771109459e-01
	1.799992450967777e+00
	3.672438158690102e-03
	4.417260298063999e-05
	5.761763093196574e-13

 39	7.943282347242834e+03
	1.524391934876874e-14
	1.568683892682184e-17
	6.932583957735499e-16
	-5.553713643535236e-18
	5.637686671484331e-14
	-5.706457139697333e-14
	1.304286170837714e-08
	9.880254904091059e-06
	-1.976256723277268e-07
	6.058251851674945e-06
	1.105705276338683e+00
	1.799992444909525e+00
	8.480497771109459e-01
	1.799992450967777e+00
	3.672438158690102e-03
	4.097958484981139e-05
	5.345274455925686e-13

 40	1.000000000000003e+04
	1.524391934876874e-14
	1.568683892682184e-17
	6.932583957735499e-16
	-5.553713643535236e-18
	5.637686671484331e-14
	-5.706457139697333e-14
	1.304286170837714e-08
	9.880254904091059e-06
	-1.976256723277268e-07
	6.058251851674945e-06
	1.105705276338683e+00
	1.799992444909525e+00
	8.480497771109459e-01
	1.799992450967777e+00
	3.672438158690102e-03
	3.817464611585948e-05
	4.979406165420224e-13

 41	1.258925411794171e+04
	1.524391934876874e-14
	1.568683892682184e-17
	6.932583957735499e-16
	-5.553713643535236e-18
	5.637686671484331e-14
	-5.706457139697333e-14
	1.304286170837714e-08
	9.880254904091059e-06
	-1.976256723277268e-07
	6.058251851674945e-06
	1.105705276338683e+00
	1.799992444909525e+00
	8.480497771109459e-01
	1.799992450967777e+00
	3.672438158690102e-03
	3.572119109321335e-05
	4.659384905420070e-13

 42	1.584893192461118e+04
	1.524391934876874e-14
	1.568683892682184e-17
	6.932583957735499e-16
	-5.553713643535236e-18
	5.637686671484331e-14
	-5.706457139697333e-14
	1.304286170837714e-08
	9.880254904091059e-06
	-1.976256723277268e-07
	6.058251851674945e-06
	1.105705276338683e+00
	1.799992444909525e+00
	8.480497771109459e-01
	1.799992450967777e+00
	3.672438158690102e-03
	3.358506626642058e-05
	4.380755980870808e-13

 43	1.995262314968885e+04
	1.524391934876874e-14
	1.568683892682184e-17
	6.932583957735499e-16
	-5.553713643535236e-18
	5.637686671484331e-14
	-5.706457139697333e-14
	1.304286170837714e-08
	9.880254904091059e-06
	-1.976256723277268e-07
	6.058251851674945e-06
	1.105705276338683e+00
	1.799992444909525e+00
	8.480497771109459e-01
	1.799992450967777e+00
	3.672438158690102e-03
	3.173426782521957e-05
	4.139345208948224e-13

 44	2.511886431509587e+04
	1.524391934876874e-14
	1.568683892682184e-17
	6.932583957735499e-16
	-5.553713643535236e-18
	5.637686671484331e-14
	-5.706457139697333e-14
	1.304286170837714e-08
	9.880254904091059e-06
	-1.976256723277268e-07
	6.058251851674945e-06
	1.105705276338683e+00
	1.799992444909525e+00
	8.480497771109459e-01
	1.799992450967777e+00
	3.672438158690102e-03
